
T28A4 000:412 SEGGER J-Link V4.80g Log File (0001ms, 0268ms total)
T28A4 000:412 DLL Compiled: Feb 13 2014 20:50:02 (0001ms, 0268ms total)
T28A4 000:412 Logging started @ 2016-11-25 08:57 (0001ms, 0268ms total)
T28A4 000:413 JLINK_SetWarnOutHandler(...) (0000ms, 0268ms total)
T28A4 000:413 JLINK_OpenEx(...)
Firmware: J-Link ARM V8 compiled Nov 25 2013 19:20:08
Hardware: V8.00
Feature(s): RDI,FlashDL,FlashBP,JFlash,GDBFULL  returns O.K. (0265ms, 0533ms total)
T28A4 000:678 JLINK_SetErrorOutHandler(...) (0000ms, 0533ms total)
T28A4 000:678 JLINK_ExecCommand("ProjectFile = "E:\work\ZR-3500\ZR-3500-TWO-PRO\ZR-3500-TWO-PRO-V4.20test-rate-dgus\ZR-3500-TWO-PRO-V4.20-test\USER\JLinkSettings.ini"", ...)  returns 0x00 (0000ms, 0533ms total)
T28A4 000:686 JLINK_ExecCommand("Device = STM32F407VE", ...)Device "STM32F407VE" selected (512 KB flash, 128 KB RAM).  returns 0x00 (0006ms, 0539ms total)
T28A4 000:692 JLINK_ExecCommand("DisableConnectionTimeout", ...)  returns 0x01 (0000ms, 0539ms total)
T28A4 000:692 JLINK_GetHardwareVersion()  returns 0x13880 (0000ms, 0539ms total)
T28A4 000:692 JLINK_GetDLLVersion()  returns 48007 (0000ms, 0539ms total)
T28A4 000:692 JLINK_GetFirmwareString(...) (0000ms, 0539ms total)
T28A4 000:702 JLINK_GetDLLVersion()  returns 48007 (0000ms, 0539ms total)
T28A4 000:702 JLINK_GetCompileDateTime() (0000ms, 0539ms total)
T28A4 000:705 JLINK_GetFirmwareString(...) (0000ms, 0540ms total)
T28A4 000:708 JLINK_GetHardwareVersion()  returns 0x13880 (0000ms, 0540ms total)
T28A4 000:718 JLINK_TIF_Select(JLINKARM_TIF_SWD)  returns 0x00 (0003ms, 0543ms total)
T28A4 000:721 JLINK_SetSpeed(10000) (0002ms, 0545ms total)
T28A4 000:723 JLINK_GetId() >0x108 TIF>Found SWD-DP with ID 0x2BA01477 >0x0D TIF> >0x28 TIF> >0x0D TIF> >0x28 TIF> >0x0D TIF> >0x21 TIF> >0x0D TIF> >0x28 TIF> >0x0D TIF> >0x28 TIF> >0x0D TIF> >0x28 TIF> >0x0D TIF> >0x21 TIF> >0x0D TIF> >0x21 TIF> >0x0D TIF> >0x28 TIF> >0x0D TIF> >0x21 TIF> >0x0D TIF> >0x21 TIF> >0x0D TIF> >0x28 TIF> >0x0D TIF> >0x21 TIF> >0x0D TIF> >0x21 TIF> >0x108 TIF>Found SWD-DP with ID 0x2BA01477 >0x0D TIF> >0x21 TIF> >0x0D TIF> >0x28 TIF> >0x0D TIF> >0x28 TIF> >0x0D TIF> >0x21 TIF>
 >0x0D TIF> >0x28 TIF> >0x0D TIF> >0x21 TIF> >0x0D TIF> >0x21 TIF> >0x0D TIF> >0x21 TIF> >0x0D TIF> >0x21 TIF> >0x0D TIF> >0x28 TIF> >0x0D TIF> >0x28 TIF> >0x0D TIF> >0x21 TIF> >0x0D TIF> >0x28 TIF> >0x0D TIF> >0x28 TIF> >0x0D TIF> >0x28 TIF> >0x0D TIF> >0x21 TIF> >0x0D TIF> >0x21 TIF> >0x0D TIF> >0x28 TIF> >0x0D TIF> >0x21 TIF> >0x0D TIF> >0x21 TIF>Found Cortex-M4 r0p1, Little endian. -- CPU_WriteMem(4 bytes @ 0xE0002000) -- CPU_ReadMem(4 bytes @ 0xE000EDF0) -- CPU_ReadMem(4 bytes @ 0xE0002000)
FPUnit: 6 code (BP) slots and 2 literal slots -- CPU_ReadMem(4 bytes @ 0xE000EDFC) -- CPU_ReadMem(4 bytes @ 0xE0001000) -- CPU_WriteMem(4 bytes @ 0xE0001000) -- CPU_ReadMem(4 bytes @ 0xE00FF010)TPIU fitted. -- CPU_ReadMem(4 bytes @ 0xE00FF014)ETM fitted. -- CPU_ReadMem(4 bytes @ 0xE00FF018) >0x0D TIF> >0x21 TIF>  returns 0x2BA01477 (0101ms, 0646ms total)
T28A4 000:824 JLINK_GetDeviceFamily()  returns 14 (0000ms, 0646ms total)
T28A4 000:828 JLINK_ReadMem (0xE00FFFF0, 0x0010 Bytes, ...) -- CPU is running -- CPU_ReadMem(16 bytes @ 0xE00FFFF0) -- Data:  0D 00 00 00 10 00 00 00 05 00 00 00 B1 00 00 00  returns 0x00 (0001ms, 0647ms total)
T28A4 000:829 JLINK_ReadMem (0xE00FFFD0, 0x0020 Bytes, ...) -- CPU is running -- CPU_ReadMem(32 bytes @ 0xE00FFFD0) -- Data:  00 00 00 00 00 00 00 00 00 00 00 00 00 00 00 00 ...  returns 0x00 (0001ms, 0648ms total)
T28A4 000:830 JLINK_ReadMem (0xE00FF000, 0x0018 Bytes, ...) -- CPU is running -- CPU_ReadMem(24 bytes @ 0xE00FF000) -- Data:  03 F0 F0 FF 03 20 F0 FF 03 30 F0 FF 03 10 F0 FF ...  returns 0x00 (0001ms, 0649ms total)
T28A4 000:831 JLINK_ReadMemU32(0xE000ED00, 0x0001 Items, ...) -- CPU is running -- CPU_ReadMem(4 bytes @ 0xE000ED00) -- Data:  41 C2 0F 41  returns 0x01 (0000ms, 0649ms total)
T28A4 000:831 JLINK_ReadMemU32(0xE000EF40, 0x0001 Items, ...) -- CPU is running -- CPU_ReadMem(4 bytes @ 0xE000EF40) -- Data:  21 00 11 10  returns 0x01 (0001ms, 0650ms total)
T28A4 000:832 JLINK_ReadMemU32(0xE000EF44, 0x0001 Items, ...) -- CPU is running -- CPU_ReadMem(4 bytes @ 0xE000EF44) -- Data:  11 00 00 11  returns 0x01 (0002ms, 0652ms total)
T28A4 000:834 JLINK_SetResetType(JLINKARM_RESET_TYPE_NORMAL)  returns JLINKARM_RESET_TYPE_NORMAL (0000ms, 0652ms total)
T28A4 000:834 JLINK_Reset() -- CPU is running -- CPU_WriteMem(4 bytes @ 0xE000EDF0) -- CPU is running -- CPU_WriteMem(4 bytes @ 0xE000EDFC) >0x35 TIF> -- CPU is running -- CPU_WriteMem(4 bytes @ 0xE000ED0C) -- CPU is running -- CPU_ReadMem(4 bytes @ 0xE000EDF0) -- CPU is running -- CPU_ReadMem(4 bytes @ 0xE000EDF0) -- CPU is running -- CPU_WriteMem(4 bytes @ 0xE000EDF0) -- CPU is running -- CPU_WriteMem(4 bytes @ 0xE000EDFC) -- CPU is running -- CPU_ReadMem(4 bytes @ 0xE000EDF0)
 -- CPU_WriteMem(4 bytes @ 0xE0002000) -- CPU_ReadMem(4 bytes @ 0xE000EDFC) -- CPU_ReadMem(4 bytes @ 0xE0001000) (0022ms, 0674ms total)
T28A4 000:856 JLINK_Halt()  returns 0x00 (0000ms, 0674ms total)
T28A4 000:856 JLINK_IsHalted()  returns TRUE (0000ms, 0674ms total)
T28A4 000:856 JLINK_ReadMemU32(0xE000EDF0, 0x0001 Items, ...) -- CPU_ReadMem(4 bytes @ 0xE000EDF0) -- Data:  03 00 03 00  returns 0x01 (0001ms, 0675ms total)
T28A4 000:857 JLINK_WriteU32(0xE000EDF0, 0xA05F0003) -- CPU_WriteMem(4 bytes @ 0xE000EDF0)  returns 0x00 (0001ms, 0676ms total)
T28A4 000:858 JLINK_WriteU32(0xE000EDFC, 0x01000000) -- CPU_WriteMem(4 bytes @ 0xE000EDFC)  returns 0x00 (0001ms, 0677ms total)
T28A4 000:874 JLINK_GetHWStatus(...)  returns 0x00 (0000ms, 0677ms total)
T28A4 000:883 JLINK_GetNumBPUnits(Type = 0xFFFFFF00)  returns 0x06 (0000ms, 0677ms total)
T28A4 000:883 JLINK_GetNumBPUnits(Type = 0xF0)  returns 0x2000 (0001ms, 0678ms total)
T28A4 000:884 JLINK_GetNumWPUnits()  returns 0x04 (0000ms, 0678ms total)
T28A4 000:896 JLINK_GetSpeed()  returns 0xFA0 (0000ms, 0678ms total)
T28A4 000:904 JLINK_ReadMemU32(0xE000E004, 0x0001 Items, ...) -- CPU_ReadMem(4 bytes @ 0xE000E004) -- Data:  02 00 00 00  returns 0x01 (0000ms, 0678ms total)
T28A4 000:904 JLINK_ReadMemU32(0xE000E004, 0x0001 Items, ...) -- CPU_ReadMem(4 bytes @ 0xE000E004) -- Data:  02 00 00 00  returns 0x01 (0001ms, 0679ms total)
T28A4 000:905 JLINK_WriteMem(0xE0001000, 0x001C Bytes, ...) -- Data:  01 00 00 00 00 00 00 00 00 00 00 00 00 00 00 00 ... -- CPU_WriteMem(28 bytes @ 0xE0001000)  returns 0x1C (0001ms, 0680ms total)
T28A4 000:906 JLINK_ReadMem (0xE0001000, 0x001C Bytes, ...) -- CPU_ReadMem(28 bytes @ 0xE0001000) -- Data:  01 00 00 40 00 00 00 00 00 00 00 00 00 00 00 00 ...  returns 0x00 (0001ms, 0681ms total)
T28A4 000:907 JLINK_Halt()  returns 0x00 (0000ms, 0681ms total)
T28A4 000:907 JLINK_IsHalted()  returns TRUE (0000ms, 0681ms total)
T28A4 000:910 JLINK_WriteMem(0x20000000, 0x0180 Bytes, ...) -- Data:  00 BE 0A E0 0D 78 2D 06 68 40 08 24 40 00 00 D3 ... -- CPU_WriteMem(384 bytes @ 0x20000000)  returns 0x180 (0004ms, 0685ms total)
T28A4 000:914 JLINK_WriteReg(R0, 0x08020000)  returns 0x00 (0000ms, 0685ms total)
T28A4 000:914 JLINK_WriteReg(R1, 0x00B71B00)  returns 0x00 (0000ms, 0685ms total)
T28A4 000:914 JLINK_WriteReg(R2, 0x00000001)  returns 0x00 (0000ms, 0685ms total)
T28A4 000:914 JLINK_WriteReg(R3, 0x00000000)  returns 0x00 (0000ms, 0685ms total)
T28A4 000:914 JLINK_WriteReg(R4, 0x00000000)  returns 0x00 (0000ms, 0685ms total)
T28A4 000:914 JLINK_WriteReg(R5, 0x00000000)  returns 0x00 (0000ms, 0685ms total)
T28A4 000:914 JLINK_WriteReg(R6, 0x00000000)  returns 0x00 (0000ms, 0685ms total)
T28A4 000:914 JLINK_WriteReg(R7, 0x00000000)  returns 0x00 (0000ms, 0685ms total)
T28A4 000:914 JLINK_WriteReg(R8, 0x00000000)  returns 0x00 (0000ms, 0685ms total)
T28A4 000:914 JLINK_WriteReg(R9, 0x2000017C)  returns 0x00 (0000ms, 0685ms total)
T28A4 000:914 JLINK_WriteReg(R10, 0x00000000)  returns 0x00 (0000ms, 0685ms total)
T28A4 000:914 JLINK_WriteReg(R11, 0x00000000)  returns 0x00 (0000ms, 0685ms total)
T28A4 000:914 JLINK_WriteReg(R12, 0x00000000)  returns 0x00 (0000ms, 0685ms total)
T28A4 000:914 JLINK_WriteReg(R13 (SP), 0x20001000)  returns 0x00 (0000ms, 0685ms total)
T28A4 000:914 JLINK_WriteReg(R14, 0x20000001)  returns 0x00 (0000ms, 0685ms total)
T28A4 000:914 JLINK_WriteReg(R15 (PC), 0x20000054)  returns 0x00 (0000ms, 0685ms total)
T28A4 000:914 JLINK_WriteReg(XPSR, 0x01000000)  returns 0x00 (0000ms, 0685ms total)
T28A4 000:914 JLINK_WriteReg(MSP, 0x20001000)  returns 0x00 (0000ms, 0685ms total)
T28A4 000:914 JLINK_WriteReg(PSP, 0x20001000)  returns 0x00 (0000ms, 0685ms total)
T28A4 000:914 JLINK_WriteReg(CFBP, 0x00000000)  returns 0x00 (0000ms, 0685ms total)
T28A4 000:914 JLINK_SetBPEx(Addr = 0x20000000, Type = 0xFFFFFFF2) -- CPU_ReadMem(2 bytes @ 0x20000000)  returns 0x00000001 (0001ms, 0686ms total)
T28A4 000:915 JLINK_Go() -- CPU_WriteMem(2 bytes @ 0x20000000) -- CPU_WriteMem(4 bytes @ 0xE0002008) -- CPU_WriteMem(4 bytes @ 0xE000200C) -- CPU_WriteMem(4 bytes @ 0xE0002010) -- CPU_WriteMem(4 bytes @ 0xE0002014) -- CPU_WriteMem(4 bytes @ 0xE0002018) -- CPU_WriteMem(4 bytes @ 0xE000201C) -- CPU_WriteMem(4 bytes @ 0xE0001004) (0009ms, 0695ms total)
T28A4 000:924 JLINK_IsHalted() -- CPU_ReadMem(2 bytes @ 0x20000000)  returns TRUE (0005ms, 0700ms total)
T28A4 000:929 JLINK_ReadReg(R15 (PC))  returns 0x20000000 (0000ms, 0695ms total)
T28A4 000:929 JLINK_ClrBPEx(BPHandle = 0x00000001)  returns 0x00 (0000ms, 0695ms total)
T28A4 000:929 JLINK_ReadReg(R0)  returns 0x00000000 (0000ms, 0695ms total)
T28A4 000:929 JLINK_WriteReg(R0, 0x08020000)  returns 0x00 (0000ms, 0695ms total)
T28A4 000:929 JLINK_WriteReg(R1, 0x00004000)  returns 0x00 (0000ms, 0695ms total)
T28A4 000:929 JLINK_WriteReg(R2, 0x000000FF)  returns 0x00 (0000ms, 0695ms total)
T28A4 000:929 JLINK_WriteReg(R3, 0x00000000)  returns 0x00 (0000ms, 0695ms total)
T28A4 000:929 JLINK_WriteReg(R4, 0x00000000)  returns 0x00 (0000ms, 0695ms total)
T28A4 000:929 JLINK_WriteReg(R5, 0x00000000)  returns 0x00 (0000ms, 0695ms total)
T28A4 000:929 JLINK_WriteReg(R6, 0x00000000)  returns 0x00 (0000ms, 0695ms total)
T28A4 000:929 JLINK_WriteReg(R7, 0x00000000)  returns 0x00 (0000ms, 0695ms total)
T28A4 000:929 JLINK_WriteReg(R8, 0x00000000)  returns 0x00 (0000ms, 0695ms total)
T28A4 000:929 JLINK_WriteReg(R9, 0x2000017C)  returns 0x00 (0000ms, 0695ms total)
T28A4 000:929 JLINK_WriteReg(R10, 0x00000000)  returns 0x00 (0000ms, 0695ms total)
T28A4 000:929 JLINK_WriteReg(R11, 0x00000000)  returns 0x00 (0000ms, 0695ms total)
T28A4 000:929 JLINK_WriteReg(R12, 0x00000000)  returns 0x00 (0000ms, 0695ms total)
T28A4 000:929 JLINK_WriteReg(R13 (SP), 0x20001000)  returns 0x00 (0000ms, 0695ms total)
T28A4 000:929 JLINK_WriteReg(R14, 0x20000001)  returns 0x00 (0000ms, 0695ms total)
T28A4 000:929 JLINK_WriteReg(R15 (PC), 0x20000020)  returns 0x00 (0000ms, 0695ms total)
T28A4 000:929 JLINK_WriteReg(XPSR, 0x01000000)  returns 0x00 (0000ms, 0695ms total)
T28A4 000:929 JLINK_WriteReg(MSP, 0x20001000)  returns 0x00 (0000ms, 0695ms total)
T28A4 000:929 JLINK_WriteReg(PSP, 0x20001000)  returns 0x00 (0000ms, 0695ms total)
T28A4 000:929 JLINK_WriteReg(CFBP, 0x00000000)  returns 0x00 (0000ms, 0695ms total)
T28A4 000:929 JLINK_SetBPEx(Addr = 0x20000000, Type = 0xFFFFFFF2)  returns 0x00000002 (0000ms, 0695ms total)
T28A4 000:929 JLINK_Go() (0002ms, 0697ms total)
T28A4 000:931 JLINK_IsHalted() -- CPU_ReadMem(2 bytes @ 0x20000000)  returns TRUE (0004ms, 0701ms total)
T28A4 000:935 JLINK_ReadReg(R15 (PC))  returns 0x20000000 (0000ms, 0697ms total)
T28A4 000:935 JLINK_ClrBPEx(BPHandle = 0x00000002)  returns 0x00 (0000ms, 0697ms total)
T28A4 000:935 JLINK_ReadReg(R0)  returns 0x00000001 (0000ms, 0697ms total)
T28A4 000:935 JLINK_WriteReg(R0, 0x08020000)  returns 0x00 (0000ms, 0697ms total)
T28A4 000:935 JLINK_WriteReg(R1, 0x00004000)  returns 0x00 (0000ms, 0697ms total)
T28A4 000:935 JLINK_WriteReg(R2, 0x000000FF)  returns 0x00 (0000ms, 0697ms total)
T28A4 000:935 JLINK_WriteReg(R3, 0x00000000)  returns 0x00 (0000ms, 0697ms total)
T28A4 000:935 JLINK_WriteReg(R4, 0x00000000)  returns 0x00 (0000ms, 0697ms total)
T28A4 000:935 JLINK_WriteReg(R5, 0x00000000)  returns 0x00 (0000ms, 0697ms total)
T28A4 000:935 JLINK_WriteReg(R6, 0x00000000)  returns 0x00 (0000ms, 0697ms total)
T28A4 000:935 JLINK_WriteReg(R7, 0x00000000)  returns 0x00 (0000ms, 0697ms total)
T28A4 000:935 JLINK_WriteReg(R8, 0x00000000)  returns 0x00 (0000ms, 0697ms total)
T28A4 000:935 JLINK_WriteReg(R9, 0x2000017C)  returns 0x00 (0000ms, 0697ms total)
T28A4 000:935 JLINK_WriteReg(R10, 0x00000000)  returns 0x00 (0001ms, 0698ms total)
T28A4 000:936 JLINK_WriteReg(R11, 0x00000000)  returns 0x00 (0000ms, 0698ms total)
T28A4 000:936 JLINK_WriteReg(R12, 0x00000000)  returns 0x00 (0000ms, 0698ms total)
T28A4 000:936 JLINK_WriteReg(R13 (SP), 0x20001000)  returns 0x00 (0000ms, 0698ms total)
T28A4 000:936 JLINK_WriteReg(R14, 0x20000001)  returns 0x00 (0000ms, 0698ms total)
T28A4 000:936 JLINK_WriteReg(R15 (PC), 0x200000BC)  returns 0x00 (0000ms, 0698ms total)
T28A4 000:936 JLINK_WriteReg(XPSR, 0x01000000)  returns 0x00 (0000ms, 0698ms total)
T28A4 000:936 JLINK_WriteReg(MSP, 0x20001000)  returns 0x00 (0000ms, 0698ms total)
T28A4 000:936 JLINK_WriteReg(PSP, 0x20001000)  returns 0x00 (0000ms, 0698ms total)
T28A4 000:936 JLINK_WriteReg(CFBP, 0x00000000)  returns 0x00 (0000ms, 0698ms total)
T28A4 000:936 JLINK_SetBPEx(Addr = 0x20000000, Type = 0xFFFFFFF2)  returns 0x00000003 (0000ms, 0698ms total)
T28A4 000:936 JLINK_Go() (0001ms, 0699ms total)
T28A4 000:937 JLINK_IsHalted()  returns FALSE (0001ms, 0700ms total)
T28A4 001:076 JLINK_IsHalted()  returns FALSE (0001ms, 0700ms total)
T28A4 001:194 JLINK_IsHalted()  returns FALSE (0000ms, 0699ms total)
T28A4 001:305 JLINK_IsHalted()  returns FALSE (0000ms, 0699ms total)
T28A4 001:410 JLINK_IsHalted()  returns FALSE (0001ms, 0700ms total)
T28A4 001:413 JLINK_IsHalted()  returns FALSE (0000ms, 0699ms total)
T28A4 001:415 JLINK_IsHalted()  returns FALSE (0001ms, 0700ms total)
T28A4 001:418 JLINK_IsHalted()  returns FALSE (0001ms, 0700ms total)
T28A4 001:527 JLINK_IsHalted()  returns FALSE (0001ms, 0700ms total)
T28A4 001:628 JLINK_IsHalted()  returns FALSE (0000ms, 0699ms total)
T28A4 001:630 JLINK_IsHalted()  returns FALSE (0000ms, 0699ms total)
T28A4 001:632 JLINK_IsHalted()  returns FALSE (0000ms, 0699ms total)
T28A4 001:634 JLINK_IsHalted()  returns FALSE (0000ms, 0699ms total)
T28A4 001:743 JLINK_IsHalted()  returns FALSE (0000ms, 0699ms total)
T28A4 001:745 JLINK_IsHalted()  returns FALSE (0000ms, 0699ms total)
T28A4 001:849 JLINK_IsHalted()  returns FALSE (0000ms, 0699ms total)
T28A4 001:851 JLINK_IsHalted()  returns FALSE (0000ms, 0699ms total)
T28A4 001:853 JLINK_IsHalted()  returns FALSE (0000ms, 0699ms total)
T28A4 001:855 JLINK_IsHalted()  returns FALSE (0000ms, 0699ms total)
T28A4 001:857 JLINK_IsHalted()  returns FALSE (0000ms, 0699ms total)
T28A4 001:964 JLINK_IsHalted()  returns FALSE (0001ms, 0700ms total)
T28A4 002:072 JLINK_IsHalted()  returns FALSE (0000ms, 0699ms total)
T28A4 002:074 JLINK_IsHalted()  returns FALSE (0000ms, 0699ms total)
T28A4 002:076 JLINK_IsHalted()  returns FALSE (0000ms, 0699ms total)
T28A4 002:175 JLINK_IsHalted()  returns FALSE (0002ms, 0701ms total)
T28A4 002:179 JLINK_IsHalted()  returns FALSE (0000ms, 0699ms total)
T28A4 002:181 JLINK_IsHalted()  returns FALSE (0000ms, 0699ms total)
T28A4 002:183 JLINK_IsHalted()  returns FALSE (0000ms, 0699ms total)
T28A4 002:286 JLINK_IsHalted()  returns FALSE (0000ms, 0699ms total)
T28A4 002:288 JLINK_IsHalted()  returns FALSE (0001ms, 0700ms total)
T28A4 002:291 JLINK_IsHalted()  returns FALSE (0001ms, 0700ms total)
T28A4 002:293 JLINK_IsHalted()  returns FALSE (0001ms, 0700ms total)
T28A4 002:296 JLINK_IsHalted()  returns FALSE (0001ms, 0700ms total)
T28A4 002:400 JLINK_IsHalted()  returns FALSE (0000ms, 0699ms total)
T28A4 002:402 JLINK_IsHalted()  returns FALSE (0000ms, 0699ms total)
T28A4 002:404 JLINK_IsHalted()  returns FALSE (0000ms, 0699ms total)
T28A4 002:522 JLINK_IsHalted()  returns FALSE (0000ms, 0699ms total)
T28A4 002:611 JLINK_IsHalted()  returns FALSE (0000ms, 0699ms total)
T28A4 002:613 JLINK_IsHalted()  returns FALSE (0000ms, 0699ms total)
T28A4 002:615 JLINK_IsHalted()  returns FALSE (0000ms, 0699ms total)
T28A4 002:617 JLINK_IsHalted()  returns FALSE (0000ms, 0699ms total)
T28A4 002:619 JLINK_IsHalted()  returns FALSE (0000ms, 0699ms total)
T28A4 002:621 JLINK_IsHalted()  returns FALSE (0000ms, 0699ms total)
T28A4 002:727 JLINK_IsHalted()  returns FALSE (0000ms, 0699ms total)
T28A4 002:729 JLINK_IsHalted()  returns FALSE (0000ms, 0699ms total)
T28A4 002:829 JLINK_IsHalted()  returns FALSE (0001ms, 0700ms total)
T28A4 002:832 JLINK_IsHalted()  returns FALSE (0000ms, 0699ms total)
T28A4 002:834 JLINK_IsHalted()  returns FALSE (0000ms, 0699ms total)
T28A4 002:836 JLINK_IsHalted()  returns FALSE (0000ms, 0699ms total)
T28A4 002:838 JLINK_IsHalted()  returns FALSE (0000ms, 0699ms total)
T28A4 002:840 JLINK_IsHalted()  returns FALSE (0000ms, 0699ms total)
T28A4 002:944 JLINK_IsHalted()  returns FALSE (0000ms, 0699ms total)
T28A4 002:946 JLINK_IsHalted()  returns FALSE (0000ms, 0699ms total)
T28A4 002:948 JLINK_IsHalted()  returns FALSE (0000ms, 0699ms total)
T28A4 003:047 JLINK_IsHalted()  returns FALSE (0000ms, 0699ms total)
T28A4 003:054 JLINK_IsHalted()  returns FALSE (0001ms, 0700ms total)
T28A4 003:057 JLINK_IsHalted()  returns FALSE (0000ms, 0699ms total)
T28A4 003:153 JLINK_IsHalted()  returns FALSE (0000ms, 0699ms total)
T28A4 003:155 JLINK_IsHalted()  returns FALSE (0000ms, 0699ms total)
T28A4 003:157 JLINK_IsHalted() -- CPU_ReadMem(2 bytes @ 0x20000000)  returns TRUE (0003ms, 0702ms total)
T28A4 003:160 JLINK_ReadReg(R15 (PC))  returns 0x20000000 (0000ms, 0699ms total)
T28A4 003:160 JLINK_ClrBPEx(BPHandle = 0x00000003)  returns 0x00 (0000ms, 0699ms total)
T28A4 003:160 JLINK_ReadReg(R0)  returns 0x00000000 (0000ms, 0699ms total)
T28A4 003:161 JLINK_WriteReg(R0, 0x08024000)  returns 0x00 (0000ms, 0699ms total)
T28A4 003:161 JLINK_WriteReg(R1, 0x00004000)  returns 0x00 (0000ms, 0699ms total)
T28A4 003:161 JLINK_WriteReg(R2, 0x000000FF)  returns 0x00 (0000ms, 0699ms total)
T28A4 003:161 JLINK_WriteReg(R3, 0x00000000)  returns 0x00 (0000ms, 0699ms total)
T28A4 003:161 JLINK_WriteReg(R4, 0x00000000)  returns 0x00 (0000ms, 0699ms total)
T28A4 003:161 JLINK_WriteReg(R5, 0x00000000)  returns 0x00 (0000ms, 0699ms total)
T28A4 003:161 JLINK_WriteReg(R6, 0x00000000)  returns 0x00 (0000ms, 0699ms total)
T28A4 003:161 JLINK_WriteReg(R7, 0x00000000)  returns 0x00 (0000ms, 0699ms total)
T28A4 003:161 JLINK_WriteReg(R8, 0x00000000)  returns 0x00 (0000ms, 0699ms total)
T28A4 003:161 JLINK_WriteReg(R9, 0x2000017C)  returns 0x00 (0000ms, 0699ms total)
T28A4 003:161 JLINK_WriteReg(R10, 0x00000000)  returns 0x00 (0000ms, 0699ms total)
T28A4 003:161 JLINK_WriteReg(R11, 0x00000000)  returns 0x00 (0000ms, 0699ms total)
T28A4 003:161 JLINK_WriteReg(R12, 0x00000000)  returns 0x00 (0000ms, 0699ms total)
T28A4 003:161 JLINK_WriteReg(R13 (SP), 0x20001000)  returns 0x00 (0000ms, 0699ms total)
T28A4 003:161 JLINK_WriteReg(R14, 0x20000001)  returns 0x00 (0000ms, 0699ms total)
T28A4 003:161 JLINK_WriteReg(R15 (PC), 0x20000020)  returns 0x00 (0000ms, 0699ms total)
T28A4 003:161 JLINK_WriteReg(XPSR, 0x01000000)  returns 0x00 (0000ms, 0699ms total)
T28A4 003:161 JLINK_WriteReg(MSP, 0x20001000)  returns 0x00 (0000ms, 0699ms total)
T28A4 003:161 JLINK_WriteReg(PSP, 0x20001000)  returns 0x00 (0000ms, 0699ms total)
T28A4 003:161 JLINK_WriteReg(CFBP, 0x00000000)  returns 0x00 (0000ms, 0699ms total)
T28A4 003:161 JLINK_SetBPEx(Addr = 0x20000000, Type = 0xFFFFFFF2)  returns 0x00000004 (0000ms, 0699ms total)
T28A4 003:161 JLINK_Go() (0002ms, 0701ms total)
T28A4 003:163 JLINK_IsHalted()  returns FALSE (0001ms, 0702ms total)
T28A4 003:273 JLINK_IsHalted() -- CPU_ReadMem(2 bytes @ 0x20000000)  returns TRUE (0005ms, 0706ms total)
T28A4 003:278 JLINK_ReadReg(R15 (PC))  returns 0x20000000 (0000ms, 0701ms total)
T28A4 003:278 JLINK_ClrBPEx(BPHandle = 0x00000004)  returns 0x00 (0000ms, 0701ms total)
T28A4 003:278 JLINK_ReadReg(R0)  returns 0x00000000 (0000ms, 0701ms total)
T28A4 003:278 JLINK_WriteReg(R0, 0x08028000)  returns 0x00 (0000ms, 0701ms total)
T28A4 003:278 JLINK_WriteReg(R1, 0x00004000)  returns 0x00 (0000ms, 0701ms total)
T28A4 003:278 JLINK_WriteReg(R2, 0x000000FF)  returns 0x00 (0000ms, 0701ms total)
T28A4 003:278 JLINK_WriteReg(R3, 0x00000000)  returns 0x00 (0000ms, 0701ms total)
T28A4 003:278 JLINK_WriteReg(R4, 0x00000000)  returns 0x00 (0000ms, 0701ms total)
T28A4 003:278 JLINK_WriteReg(R5, 0x00000000)  returns 0x00 (0000ms, 0701ms total)
T28A4 003:278 JLINK_WriteReg(R6, 0x00000000)  returns 0x00 (0000ms, 0701ms total)
T28A4 003:278 JLINK_WriteReg(R7, 0x00000000)  returns 0x00 (0000ms, 0701ms total)
T28A4 003:278 JLINK_WriteReg(R8, 0x00000000)  returns 0x00 (0000ms, 0701ms total)
T28A4 003:278 JLINK_WriteReg(R9, 0x2000017C)  returns 0x00 (0000ms, 0701ms total)
T28A4 003:278 JLINK_WriteReg(R10, 0x00000000)  returns 0x00 (0000ms, 0701ms total)
T28A4 003:278 JLINK_WriteReg(R11, 0x00000000)  returns 0x00 (0000ms, 0701ms total)
T28A4 003:278 JLINK_WriteReg(R12, 0x00000000)  returns 0x00 (0000ms, 0701ms total)
T28A4 003:278 JLINK_WriteReg(R13 (SP), 0x20001000)  returns 0x00 (0000ms, 0701ms total)
T28A4 003:279 JLINK_WriteReg(R14, 0x20000001)  returns 0x00 (0000ms, 0702ms total)
T28A4 003:279 JLINK_WriteReg(R15 (PC), 0x20000020)  returns 0x00 (0000ms, 0702ms total)
T28A4 003:279 JLINK_WriteReg(XPSR, 0x01000000)  returns 0x00 (0000ms, 0702ms total)
T28A4 003:279 JLINK_WriteReg(MSP, 0x20001000)  returns 0x00 (0000ms, 0702ms total)
T28A4 003:279 JLINK_WriteReg(PSP, 0x20001000)  returns 0x00 (0000ms, 0702ms total)
T28A4 003:279 JLINK_WriteReg(CFBP, 0x00000000)  returns 0x00 (0000ms, 0702ms total)
T28A4 003:279 JLINK_SetBPEx(Addr = 0x20000000, Type = 0xFFFFFFF2)  returns 0x00000005 (0000ms, 0702ms total)
T28A4 003:279 JLINK_Go() (0001ms, 0703ms total)
T28A4 003:280 JLINK_IsHalted()  returns FALSE (0001ms, 0704ms total)
T28A4 003:381 JLINK_IsHalted() -- CPU_ReadMem(2 bytes @ 0x20000000)  returns TRUE (0004ms, 0707ms total)
T28A4 003:385 JLINK_ReadReg(R15 (PC))  returns 0x20000000 (0000ms, 0703ms total)
T28A4 003:385 JLINK_ClrBPEx(BPHandle = 0x00000005)  returns 0x00 (0000ms, 0703ms total)
T28A4 003:385 JLINK_ReadReg(R0)  returns 0x00000000 (0000ms, 0703ms total)
T28A4 003:385 JLINK_WriteReg(R0, 0x0802C000)  returns 0x00 (0000ms, 0703ms total)
T28A4 003:385 JLINK_WriteReg(R1, 0x00004000)  returns 0x00 (0000ms, 0703ms total)
T28A4 003:385 JLINK_WriteReg(R2, 0x000000FF)  returns 0x00 (0000ms, 0703ms total)
T28A4 003:385 JLINK_WriteReg(R3, 0x00000000)  returns 0x00 (0000ms, 0703ms total)
T28A4 003:385 JLINK_WriteReg(R4, 0x00000000)  returns 0x00 (0001ms, 0704ms total)
T28A4 003:386 JLINK_WriteReg(R5, 0x00000000)  returns 0x00 (0000ms, 0704ms total)
T28A4 003:386 JLINK_WriteReg(R6, 0x00000000)  returns 0x00 (0000ms, 0704ms total)
T28A4 003:386 JLINK_WriteReg(R7, 0x00000000)  returns 0x00 (0000ms, 0704ms total)
T28A4 003:386 JLINK_WriteReg(R8, 0x00000000)  returns 0x00 (0000ms, 0704ms total)
T28A4 003:386 JLINK_WriteReg(R9, 0x2000017C)  returns 0x00 (0000ms, 0704ms total)
T28A4 003:386 JLINK_WriteReg(R10, 0x00000000)  returns 0x00 (0000ms, 0704ms total)
T28A4 003:386 JLINK_WriteReg(R11, 0x00000000)  returns 0x00 (0000ms, 0704ms total)
T28A4 003:386 JLINK_WriteReg(R12, 0x00000000)  returns 0x00 (0000ms, 0704ms total)
T28A4 003:386 JLINK_WriteReg(R13 (SP), 0x20001000)  returns 0x00 (0000ms, 0704ms total)
T28A4 003:386 JLINK_WriteReg(R14, 0x20000001)  returns 0x00 (0000ms, 0704ms total)
T28A4 003:386 JLINK_WriteReg(R15 (PC), 0x20000020)  returns 0x00 (0000ms, 0704ms total)
T28A4 003:386 JLINK_WriteReg(XPSR, 0x01000000)  returns 0x00 (0000ms, 0704ms total)
T28A4 003:386 JLINK_WriteReg(MSP, 0x20001000)  returns 0x00 (0000ms, 0704ms total)
T28A4 003:386 JLINK_WriteReg(PSP, 0x20001000)  returns 0x00 (0000ms, 0704ms total)
T28A4 003:386 JLINK_WriteReg(CFBP, 0x00000000)  returns 0x00 (0000ms, 0704ms total)
T28A4 003:386 JLINK_SetBPEx(Addr = 0x20000000, Type = 0xFFFFFFF2)  returns 0x00000006 (0000ms, 0704ms total)
T28A4 003:386 JLINK_Go() (0002ms, 0706ms total)
T28A4 003:388 JLINK_IsHalted()  returns FALSE (0001ms, 0707ms total)
T28A4 003:493 JLINK_IsHalted() -- CPU_ReadMem(2 bytes @ 0x20000000)  returns TRUE (0003ms, 0709ms total)
T28A4 003:496 JLINK_ReadReg(R15 (PC))  returns 0x20000000 (0000ms, 0706ms total)
T28A4 003:496 JLINK_ClrBPEx(BPHandle = 0x00000006)  returns 0x00 (0000ms, 0706ms total)
T28A4 003:496 JLINK_ReadReg(R0)  returns 0x00000000 (0000ms, 0706ms total)
T28A4 003:497 JLINK_WriteReg(R0, 0x08030000)  returns 0x00 (0000ms, 0706ms total)
T28A4 003:497 JLINK_WriteReg(R1, 0x00010000)  returns 0x00 (0000ms, 0706ms total)
T28A4 003:497 JLINK_WriteReg(R2, 0x000000FF)  returns 0x00 (0000ms, 0706ms total)
T28A4 003:497 JLINK_WriteReg(R3, 0x00000000)  returns 0x00 (0000ms, 0706ms total)
T28A4 003:497 JLINK_WriteReg(R4, 0x00000000)  returns 0x00 (0000ms, 0706ms total)
T28A4 003:497 JLINK_WriteReg(R5, 0x00000000)  returns 0x00 (0000ms, 0706ms total)
T28A4 003:497 JLINK_WriteReg(R6, 0x00000000)  returns 0x00 (0000ms, 0706ms total)
T28A4 003:497 JLINK_WriteReg(R7, 0x00000000)  returns 0x00 (0000ms, 0706ms total)
T28A4 003:497 JLINK_WriteReg(R8, 0x00000000)  returns 0x00 (0000ms, 0706ms total)
T28A4 003:497 JLINK_WriteReg(R9, 0x2000017C)  returns 0x00 (0000ms, 0706ms total)
T28A4 003:497 JLINK_WriteReg(R10, 0x00000000)  returns 0x00 (0000ms, 0706ms total)
T28A4 003:497 JLINK_WriteReg(R11, 0x00000000)  returns 0x00 (0000ms, 0706ms total)
T28A4 003:497 JLINK_WriteReg(R12, 0x00000000)  returns 0x00 (0000ms, 0706ms total)
T28A4 003:497 JLINK_WriteReg(R13 (SP), 0x20001000)  returns 0x00 (0000ms, 0706ms total)
T28A4 003:497 JLINK_WriteReg(R14, 0x20000001)  returns 0x00 (0000ms, 0706ms total)
T28A4 003:497 JLINK_WriteReg(R15 (PC), 0x20000020)  returns 0x00 (0000ms, 0706ms total)
T28A4 003:497 JLINK_WriteReg(XPSR, 0x01000000)  returns 0x00 (0000ms, 0706ms total)
T28A4 003:497 JLINK_WriteReg(MSP, 0x20001000)  returns 0x00 (0000ms, 0706ms total)
T28A4 003:497 JLINK_WriteReg(PSP, 0x20001000)  returns 0x00 (0000ms, 0706ms total)
T28A4 003:497 JLINK_WriteReg(CFBP, 0x00000000)  returns 0x00 (0000ms, 0706ms total)
T28A4 003:497 JLINK_SetBPEx(Addr = 0x20000000, Type = 0xFFFFFFF2)  returns 0x00000007 (0000ms, 0706ms total)
T28A4 003:497 JLINK_Go() (0002ms, 0708ms total)
T28A4 003:499 JLINK_IsHalted()  returns FALSE (0002ms, 0710ms total)
T28A4 003:615 JLINK_IsHalted() -- CPU_ReadMem(2 bytes @ 0x20000000)  returns TRUE (0003ms, 0711ms total)
T28A4 003:618 JLINK_ReadReg(R15 (PC))  returns 0x20000000 (0000ms, 0708ms total)
T28A4 003:618 JLINK_ClrBPEx(BPHandle = 0x00000007)  returns 0x00 (0000ms, 0708ms total)
T28A4 003:618 JLINK_ReadReg(R0)  returns 0x00000000 (0000ms, 0708ms total)
T28A4 003:620 JLINK_WriteReg(R0, 0x00000001)  returns 0x00 (0000ms, 0708ms total)
T28A4 003:620 JLINK_WriteReg(R1, 0x00010000)  returns 0x00 (0000ms, 0708ms total)
T28A4 003:620 JLINK_WriteReg(R2, 0x000000FF)  returns 0x00 (0000ms, 0708ms total)
T28A4 003:620 JLINK_WriteReg(R3, 0x00000000)  returns 0x00 (0000ms, 0708ms total)
T28A4 003:620 JLINK_WriteReg(R4, 0x00000000)  returns 0x00 (0000ms, 0708ms total)
T28A4 003:620 JLINK_WriteReg(R5, 0x00000000)  returns 0x00 (0000ms, 0708ms total)
T28A4 003:620 JLINK_WriteReg(R6, 0x00000000)  returns 0x00 (0000ms, 0708ms total)
T28A4 003:620 JLINK_WriteReg(R7, 0x00000000)  returns 0x00 (0000ms, 0708ms total)
T28A4 003:620 JLINK_WriteReg(R8, 0x00000000)  returns 0x00 (0000ms, 0708ms total)
T28A4 003:620 JLINK_WriteReg(R9, 0x2000017C)  returns 0x00 (0000ms, 0708ms total)
T28A4 003:620 JLINK_WriteReg(R10, 0x00000000)  returns 0x00 (0000ms, 0708ms total)
T28A4 003:620 JLINK_WriteReg(R11, 0x00000000)  returns 0x00 (0000ms, 0708ms total)
T28A4 003:620 JLINK_WriteReg(R12, 0x00000000)  returns 0x00 (0000ms, 0708ms total)
T28A4 003:620 JLINK_WriteReg(R13 (SP), 0x20001000)  returns 0x00 (0000ms, 0708ms total)
T28A4 003:620 JLINK_WriteReg(R14, 0x20000001)  returns 0x00 (0000ms, 0708ms total)
T28A4 003:620 JLINK_WriteReg(R15 (PC), 0x20000082)  returns 0x00 (0000ms, 0708ms total)
T28A4 003:620 JLINK_WriteReg(XPSR, 0x01000000)  returns 0x00 (0000ms, 0708ms total)
T28A4 003:620 JLINK_WriteReg(MSP, 0x20001000)  returns 0x00 (0000ms, 0708ms total)
T28A4 003:620 JLINK_WriteReg(PSP, 0x20001000)  returns 0x00 (0000ms, 0708ms total)
T28A4 003:620 JLINK_WriteReg(CFBP, 0x00000000)  returns 0x00 (0000ms, 0708ms total)
T28A4 003:620 JLINK_SetBPEx(Addr = 0x20000000, Type = 0xFFFFFFF2)  returns 0x00000008 (0000ms, 0708ms total)
T28A4 003:620 JLINK_Go() (0003ms, 0711ms total)
T28A4 003:623 JLINK_IsHalted() -- CPU_ReadMem(2 bytes @ 0x20000000)  returns TRUE (0004ms, 0715ms total)
T28A4 003:627 JLINK_ReadReg(R15 (PC))  returns 0x20000000 (0000ms, 0711ms total)
T28A4 003:627 JLINK_ClrBPEx(BPHandle = 0x00000008)  returns 0x00 (0000ms, 0711ms total)
T28A4 003:627 JLINK_ReadReg(R0)  returns 0x00000000 (0000ms, 0711ms total)
T28A4 003:683 JLINK_WriteMem(0x20000000, 0x0180 Bytes, ...) -- Data:  00 BE 0A E0 0D 78 2D 06 68 40 08 24 40 00 00 D3 ... -- CPU_WriteMem(384 bytes @ 0x20000000)  returns 0x180 (0004ms, 0715ms total)
T28A4 003:687 JLINK_WriteReg(R0, 0x08020000)  returns 0x00 (0000ms, 0715ms total)
T28A4 003:687 JLINK_WriteReg(R1, 0x00B71B00)  returns 0x00 (0000ms, 0715ms total)
T28A4 003:687 JLINK_WriteReg(R2, 0x00000002)  returns 0x00 (0000ms, 0715ms total)
T28A4 003:687 JLINK_WriteReg(R3, 0x00000000)  returns 0x00 (0000ms, 0715ms total)
T28A4 003:687 JLINK_WriteReg(R4, 0x00000000)  returns 0x00 (0000ms, 0715ms total)
T28A4 003:687 JLINK_WriteReg(R5, 0x00000000)  returns 0x00 (0000ms, 0715ms total)
T28A4 003:687 JLINK_WriteReg(R6, 0x00000000)  returns 0x00 (0000ms, 0715ms total)
T28A4 003:687 JLINK_WriteReg(R7, 0x00000000)  returns 0x00 (0000ms, 0715ms total)
T28A4 003:687 JLINK_WriteReg(R8, 0x00000000)  returns 0x00 (0000ms, 0715ms total)
T28A4 003:687 JLINK_WriteReg(R9, 0x2000017C)  returns 0x00 (0000ms, 0715ms total)
T28A4 003:687 JLINK_WriteReg(R10, 0x00000000)  returns 0x00 (0000ms, 0715ms total)
T28A4 003:687 JLINK_WriteReg(R11, 0x00000000)  returns 0x00 (0000ms, 0715ms total)
T28A4 003:687 JLINK_WriteReg(R12, 0x00000000)  returns 0x00 (0000ms, 0715ms total)
T28A4 003:687 JLINK_WriteReg(R13 (SP), 0x20001000)  returns 0x00 (0000ms, 0715ms total)
T28A4 003:687 JLINK_WriteReg(R14, 0x20000001)  returns 0x00 (0000ms, 0715ms total)
T28A4 003:687 JLINK_WriteReg(R15 (PC), 0x20000054)  returns 0x00 (0000ms, 0715ms total)
T28A4 003:687 JLINK_WriteReg(XPSR, 0x01000000)  returns 0x00 (0000ms, 0715ms total)
T28A4 003:687 JLINK_WriteReg(MSP, 0x20001000)  returns 0x00 (0000ms, 0715ms total)
T28A4 003:687 JLINK_WriteReg(PSP, 0x20001000)  returns 0x00 (0000ms, 0715ms total)
T28A4 003:687 JLINK_WriteReg(CFBP, 0x00000000)  returns 0x00 (0000ms, 0715ms total)
T28A4 003:687 JLINK_SetBPEx(Addr = 0x20000000, Type = 0xFFFFFFF2) -- CPU_ReadMem(2 bytes @ 0x20000000)  returns 0x00000009 (0001ms, 0716ms total)
T28A4 003:688 JLINK_Go() -- CPU_WriteMem(2 bytes @ 0x20000000) (0003ms, 0719ms total)
T28A4 003:691 JLINK_IsHalted() -- CPU_ReadMem(2 bytes @ 0x20000000)  returns TRUE (0004ms, 0723ms total)
T28A4 003:695 JLINK_ReadReg(R15 (PC))  returns 0x20000000 (0000ms, 0719ms total)
T28A4 003:695 JLINK_ClrBPEx(BPHandle = 0x00000009)  returns 0x00 (0000ms, 0719ms total)
T28A4 003:695 JLINK_ReadReg(R0)  returns 0x00000000 (0000ms, 0719ms total)
T28A4 003:695 JLINK_WriteMem(0x20000180, 0x0400 Bytes, ...) -- Data:  C0 DB 01 20 A5 94 02 08 01 04 02 08 03 04 02 08 ... -- CPU_WriteMem(1024 bytes @ 0x20000180)  returns 0x400 (0008ms, 0727ms total)
T28A4 003:703 JLINK_WriteReg(R0, 0x08020000)  returns 0x00 (0000ms, 0727ms total)
T28A4 003:703 JLINK_WriteReg(R1, 0x00000400)  returns 0x00 (0000ms, 0727ms total)
T28A4 003:703 JLINK_WriteReg(R2, 0x20000180)  returns 0x00 (0000ms, 0727ms total)
T28A4 003:703 JLINK_WriteReg(R3, 0x00000000)  returns 0x00 (0000ms, 0727ms total)
T28A4 003:703 JLINK_WriteReg(R4, 0x00000000)  returns 0x00 (0000ms, 0727ms total)
T28A4 003:703 JLINK_WriteReg(R5, 0x00000000)  returns 0x00 (0000ms, 0727ms total)
T28A4 003:703 JLINK_WriteReg(R6, 0x00000000)  returns 0x00 (0000ms, 0727ms total)
T28A4 003:703 JLINK_WriteReg(R7, 0x00000000)  returns 0x00 (0000ms, 0727ms total)
T28A4 003:703 JLINK_WriteReg(R8, 0x00000000)  returns 0x00 (0000ms, 0727ms total)
T28A4 003:703 JLINK_WriteReg(R9, 0x2000017C)  returns 0x00 (0000ms, 0727ms total)
T28A4 003:703 JLINK_WriteReg(R10, 0x00000000)  returns 0x00 (0000ms, 0727ms total)
T28A4 003:703 JLINK_WriteReg(R11, 0x00000000)  returns 0x00 (0000ms, 0727ms total)
T28A4 003:703 JLINK_WriteReg(R12, 0x00000000)  returns 0x00 (0000ms, 0727ms total)
T28A4 003:703 JLINK_WriteReg(R13 (SP), 0x20001000)  returns 0x00 (0000ms, 0727ms total)
T28A4 003:703 JLINK_WriteReg(R14, 0x20000001)  returns 0x00 (0000ms, 0727ms total)
T28A4 003:703 JLINK_WriteReg(R15 (PC), 0x20000108)  returns 0x00 (0000ms, 0727ms total)
T28A4 003:703 JLINK_WriteReg(XPSR, 0x01000000)  returns 0x00 (0000ms, 0727ms total)
T28A4 003:703 JLINK_WriteReg(MSP, 0x20001000)  returns 0x00 (0000ms, 0727ms total)
T28A4 003:703 JLINK_WriteReg(PSP, 0x20001000)  returns 0x00 (0000ms, 0727ms total)
T28A4 003:703 JLINK_WriteReg(CFBP, 0x00000000)  returns 0x00 (0000ms, 0727ms total)
T28A4 003:703 JLINK_SetBPEx(Addr = 0x20000000, Type = 0xFFFFFFF2)  returns 0x0000000A (0000ms, 0727ms total)
T28A4 003:703 JLINK_Go() (0002ms, 0729ms total)
T28A4 003:705 JLINK_IsHalted()  returns FALSE (0001ms, 0730ms total)
T28A4 003:817 JLINK_IsHalted() -- CPU_ReadMem(2 bytes @ 0x20000000)  returns TRUE (0004ms, 0733ms total)
T28A4 003:821 JLINK_ReadReg(R15 (PC))  returns 0x20000000 (0000ms, 0729ms total)
T28A4 003:821 JLINK_ClrBPEx(BPHandle = 0x0000000A)  returns 0x00 (0000ms, 0729ms total)
T28A4 003:821 JLINK_ReadReg(R0)  returns 0x00000000 (0000ms, 0729ms total)
T28A4 003:821 JLINK_WriteMem(0x20000180, 0x0400 Bytes, ...) -- Data:  70 47 00 BF FE E7 00 BF FE E7 00 BF FE E7 00 BF ... -- CPU_WriteMem(1024 bytes @ 0x20000180)  returns 0x400 (0007ms, 0736ms total)
T28A4 003:828 JLINK_WriteReg(R0, 0x08020400)  returns 0x00 (0000ms, 0736ms total)
T28A4 003:828 JLINK_WriteReg(R1, 0x00000400)  returns 0x00 (0000ms, 0736ms total)
T28A4 003:828 JLINK_WriteReg(R2, 0x20000180)  returns 0x00 (0000ms, 0736ms total)
T28A4 003:828 JLINK_WriteReg(R3, 0x00000000)  returns 0x00 (0000ms, 0736ms total)
T28A4 003:828 JLINK_WriteReg(R4, 0x00000000)  returns 0x00 (0000ms, 0736ms total)
T28A4 003:828 JLINK_WriteReg(R5, 0x00000000)  returns 0x00 (0000ms, 0736ms total)
T28A4 003:828 JLINK_WriteReg(R6, 0x00000000)  returns 0x00 (0000ms, 0736ms total)
T28A4 003:828 JLINK_WriteReg(R7, 0x00000000)  returns 0x00 (0000ms, 0736ms total)
T28A4 003:828 JLINK_WriteReg(R8, 0x00000000)  returns 0x00 (0000ms, 0736ms total)
T28A4 003:828 JLINK_WriteReg(R9, 0x2000017C)  returns 0x00 (0000ms, 0736ms total)
T28A4 003:828 JLINK_WriteReg(R10, 0x00000000)  returns 0x00 (0000ms, 0736ms total)
T28A4 003:828 JLINK_WriteReg(R11, 0x00000000)  returns 0x00 (0000ms, 0736ms total)
T28A4 003:828 JLINK_WriteReg(R12, 0x00000000)  returns 0x00 (0000ms, 0736ms total)
T28A4 003:828 JLINK_WriteReg(R13 (SP), 0x20001000)  returns 0x00 (0000ms, 0736ms total)
T28A4 003:828 JLINK_WriteReg(R14, 0x20000001)  returns 0x00 (0000ms, 0736ms total)
T28A4 003:828 JLINK_WriteReg(R15 (PC), 0x20000108)  returns 0x00 (0000ms, 0736ms total)
T28A4 003:828 JLINK_WriteReg(XPSR, 0x01000000)  returns 0x00 (0000ms, 0736ms total)
T28A4 003:828 JLINK_WriteReg(MSP, 0x20001000)  returns 0x00 (0000ms, 0736ms total)
T28A4 003:828 JLINK_WriteReg(PSP, 0x20001000)  returns 0x00 (0000ms, 0736ms total)
T28A4 003:828 JLINK_WriteReg(CFBP, 0x00000000)  returns 0x00 (0000ms, 0736ms total)
T28A4 003:828 JLINK_SetBPEx(Addr = 0x20000000, Type = 0xFFFFFFF2)  returns 0x0000000B (0000ms, 0736ms total)
T28A4 003:828 JLINK_Go() (0002ms, 0738ms total)
T28A4 003:830 JLINK_IsHalted()  returns FALSE (0001ms, 0739ms total)
T28A4 003:943 JLINK_IsHalted() -- CPU_ReadMem(2 bytes @ 0x20000000)  returns TRUE (0004ms, 0742ms total)
T28A4 003:947 JLINK_ReadReg(R15 (PC))  returns 0x20000000 (0000ms, 0738ms total)
T28A4 003:947 JLINK_ClrBPEx(BPHandle = 0x0000000B)  returns 0x00 (0000ms, 0738ms total)
T28A4 003:947 JLINK_ReadReg(R0)  returns 0x00000000 (0000ms, 0738ms total)
T28A4 003:948 JLINK_WriteMem(0x20000180, 0x0400 Bytes, ...) -- Data:  90 FF A1 48 01 88 96 48 FF F7 8B FF 9E 48 01 88 ... -- CPU_WriteMem(1024 bytes @ 0x20000180)  returns 0x400 (0007ms, 0745ms total)
T28A4 003:955 JLINK_WriteReg(R0, 0x08020800)  returns 0x00 (0000ms, 0745ms total)
T28A4 003:955 JLINK_WriteReg(R1, 0x00000400)  returns 0x00 (0000ms, 0745ms total)
T28A4 003:955 JLINK_WriteReg(R2, 0x20000180)  returns 0x00 (0000ms, 0745ms total)
T28A4 003:955 JLINK_WriteReg(R3, 0x00000000)  returns 0x00 (0000ms, 0745ms total)
T28A4 003:955 JLINK_WriteReg(R4, 0x00000000)  returns 0x00 (0000ms, 0745ms total)
T28A4 003:955 JLINK_WriteReg(R5, 0x00000000)  returns 0x00 (0000ms, 0745ms total)
T28A4 003:955 JLINK_WriteReg(R6, 0x00000000)  returns 0x00 (0000ms, 0745ms total)
T28A4 003:955 JLINK_WriteReg(R7, 0x00000000)  returns 0x00 (0000ms, 0745ms total)
T28A4 003:955 JLINK_WriteReg(R8, 0x00000000)  returns 0x00 (0000ms, 0745ms total)
T28A4 003:955 JLINK_WriteReg(R9, 0x2000017C)  returns 0x00 (0000ms, 0745ms total)
T28A4 003:955 JLINK_WriteReg(R10, 0x00000000)  returns 0x00 (0000ms, 0745ms total)
T28A4 003:955 JLINK_WriteReg(R11, 0x00000000)  returns 0x00 (0000ms, 0745ms total)
T28A4 003:955 JLINK_WriteReg(R12, 0x00000000)  returns 0x00 (0000ms, 0745ms total)
T28A4 003:955 JLINK_WriteReg(R13 (SP), 0x20001000)  returns 0x00 (0000ms, 0745ms total)
T28A4 003:955 JLINK_WriteReg(R14, 0x20000001)  returns 0x00 (0000ms, 0745ms total)
T28A4 003:955 JLINK_WriteReg(R15 (PC), 0x20000108)  returns 0x00 (0000ms, 0745ms total)
T28A4 003:955 JLINK_WriteReg(XPSR, 0x01000000)  returns 0x00 (0000ms, 0745ms total)
T28A4 003:955 JLINK_WriteReg(MSP, 0x20001000)  returns 0x00 (0000ms, 0745ms total)
T28A4 003:955 JLINK_WriteReg(PSP, 0x20001000)  returns 0x00 (0000ms, 0745ms total)
T28A4 003:955 JLINK_WriteReg(CFBP, 0x00000000)  returns 0x00 (0000ms, 0745ms total)
T28A4 003:955 JLINK_SetBPEx(Addr = 0x20000000, Type = 0xFFFFFFF2)  returns 0x0000000C (0000ms, 0745ms total)
T28A4 003:955 JLINK_Go() (0003ms, 0748ms total)
T28A4 003:958 JLINK_IsHalted()  returns FALSE (0001ms, 0749ms total)
T28A4 004:071 JLINK_IsHalted() -- CPU_ReadMem(2 bytes @ 0x20000000)  returns TRUE (0004ms, 0752ms total)
T28A4 004:075 JLINK_ReadReg(R15 (PC))  returns 0x20000000 (0000ms, 0748ms total)
T28A4 004:075 JLINK_ClrBPEx(BPHandle = 0x0000000C)  returns 0x00 (0000ms, 0748ms total)
T28A4 004:075 JLINK_ReadReg(R0)  returns 0x00000000 (0000ms, 0748ms total)
T28A4 004:075 JLINK_WriteMem(0x20000180, 0x0400 Bytes, ...) -- Data:  BA E7 FC E3 D1 48 04 80 01 88 40 F2 B6 50 0C F0 ... -- CPU_WriteMem(1024 bytes @ 0x20000180)  returns 0x400 (0008ms, 0756ms total)
T28A4 004:083 JLINK_WriteReg(R0, 0x08020C00)  returns 0x00 (0000ms, 0756ms total)
T28A4 004:083 JLINK_WriteReg(R1, 0x00000400)  returns 0x00 (0000ms, 0756ms total)
T28A4 004:083 JLINK_WriteReg(R2, 0x20000180)  returns 0x00 (0000ms, 0756ms total)
T28A4 004:083 JLINK_WriteReg(R3, 0x00000000)  returns 0x00 (0000ms, 0756ms total)
T28A4 004:083 JLINK_WriteReg(R4, 0x00000000)  returns 0x00 (0000ms, 0756ms total)
T28A4 004:083 JLINK_WriteReg(R5, 0x00000000)  returns 0x00 (0000ms, 0756ms total)
T28A4 004:083 JLINK_WriteReg(R6, 0x00000000)  returns 0x00 (0000ms, 0756ms total)
T28A4 004:083 JLINK_WriteReg(R7, 0x00000000)  returns 0x00 (0000ms, 0756ms total)
T28A4 004:083 JLINK_WriteReg(R8, 0x00000000)  returns 0x00 (0000ms, 0756ms total)
T28A4 004:083 JLINK_WriteReg(R9, 0x2000017C)  returns 0x00 (0000ms, 0756ms total)
T28A4 004:083 JLINK_WriteReg(R10, 0x00000000)  returns 0x00 (0000ms, 0756ms total)
T28A4 004:083 JLINK_WriteReg(R11, 0x00000000)  returns 0x00 (0000ms, 0756ms total)
T28A4 004:083 JLINK_WriteReg(R12, 0x00000000)  returns 0x00 (0000ms, 0756ms total)
T28A4 004:083 JLINK_WriteReg(R13 (SP), 0x20001000)  returns 0x00 (0000ms, 0756ms total)
T28A4 004:083 JLINK_WriteReg(R14, 0x20000001)  returns 0x00 (0000ms, 0756ms total)
T28A4 004:083 JLINK_WriteReg(R15 (PC), 0x20000108)  returns 0x00 (0000ms, 0756ms total)
T28A4 004:083 JLINK_WriteReg(XPSR, 0x01000000)  returns 0x00 (0000ms, 0756ms total)
T28A4 004:083 JLINK_WriteReg(MSP, 0x20001000)  returns 0x00 (0000ms, 0756ms total)
T28A4 004:083 JLINK_WriteReg(PSP, 0x20001000)  returns 0x00 (0000ms, 0756ms total)
T28A4 004:083 JLINK_WriteReg(CFBP, 0x00000000)  returns 0x00 (0000ms, 0756ms total)
T28A4 004:083 JLINK_SetBPEx(Addr = 0x20000000, Type = 0xFFFFFFF2)  returns 0x0000000D (0000ms, 0756ms total)
T28A4 004:083 JLINK_Go() (0002ms, 0758ms total)
T28A4 004:086 JLINK_IsHalted()  returns FALSE (0000ms, 0759ms total)
T28A4 004:199 JLINK_IsHalted() -- CPU_ReadMem(2 bytes @ 0x20000000)  returns TRUE (0004ms, 0763ms total)
T28A4 004:203 JLINK_ReadReg(R15 (PC))  returns 0x20000000 (0000ms, 0759ms total)
T28A4 004:203 JLINK_ClrBPEx(BPHandle = 0x0000000D)  returns 0x00 (0000ms, 0759ms total)
T28A4 004:203 JLINK_ReadReg(R0)  returns 0x00000000 (0000ms, 0759ms total)
T28A4 004:203 JLINK_WriteMem(0x20000180, 0x0400 Bytes, ...) -- Data:  00 0A B0 EE 60 0A 4F F4 34 70 0C F0 9A F9 54 20 ... -- CPU_WriteMem(1024 bytes @ 0x20000180)  returns 0x400 (0008ms, 0767ms total)
T28A4 004:211 JLINK_WriteReg(R0, 0x08021000)  returns 0x00 (0000ms, 0767ms total)
T28A4 004:211 JLINK_WriteReg(R1, 0x00000400)  returns 0x00 (0000ms, 0767ms total)
T28A4 004:211 JLINK_WriteReg(R2, 0x20000180)  returns 0x00 (0000ms, 0767ms total)
T28A4 004:211 JLINK_WriteReg(R3, 0x00000000)  returns 0x00 (0000ms, 0767ms total)
T28A4 004:211 JLINK_WriteReg(R4, 0x00000000)  returns 0x00 (0000ms, 0767ms total)
T28A4 004:211 JLINK_WriteReg(R5, 0x00000000)  returns 0x00 (0000ms, 0767ms total)
T28A4 004:211 JLINK_WriteReg(R6, 0x00000000)  returns 0x00 (0000ms, 0767ms total)
T28A4 004:211 JLINK_WriteReg(R7, 0x00000000)  returns 0x00 (0000ms, 0767ms total)
T28A4 004:211 JLINK_WriteReg(R8, 0x00000000)  returns 0x00 (0000ms, 0767ms total)
T28A4 004:211 JLINK_WriteReg(R9, 0x2000017C)  returns 0x00 (0000ms, 0767ms total)
T28A4 004:211 JLINK_WriteReg(R10, 0x00000000)  returns 0x00 (0001ms, 0768ms total)
T28A4 004:212 JLINK_WriteReg(R11, 0x00000000)  returns 0x00 (0000ms, 0768ms total)
T28A4 004:212 JLINK_WriteReg(R12, 0x00000000)  returns 0x00 (0000ms, 0768ms total)
T28A4 004:212 JLINK_WriteReg(R13 (SP), 0x20001000)  returns 0x00 (0000ms, 0768ms total)
T28A4 004:212 JLINK_WriteReg(R14, 0x20000001)  returns 0x00 (0000ms, 0768ms total)
T28A4 004:212 JLINK_WriteReg(R15 (PC), 0x20000108)  returns 0x00 (0000ms, 0768ms total)
T28A4 004:212 JLINK_WriteReg(XPSR, 0x01000000)  returns 0x00 (0000ms, 0768ms total)
T28A4 004:212 JLINK_WriteReg(MSP, 0x20001000)  returns 0x00 (0000ms, 0768ms total)
T28A4 004:212 JLINK_WriteReg(PSP, 0x20001000)  returns 0x00 (0000ms, 0768ms total)
T28A4 004:212 JLINK_WriteReg(CFBP, 0x00000000)  returns 0x00 (0000ms, 0768ms total)
T28A4 004:212 JLINK_SetBPEx(Addr = 0x20000000, Type = 0xFFFFFFF2)  returns 0x0000000E (0000ms, 0768ms total)
T28A4 004:212 JLINK_Go() (0001ms, 0769ms total)
T28A4 004:213 JLINK_IsHalted()  returns FALSE (0001ms, 0770ms total)
T28A4 004:324 JLINK_IsHalted() -- CPU_ReadMem(2 bytes @ 0x20000000)  returns TRUE (0004ms, 0773ms total)
T28A4 004:328 JLINK_ReadReg(R15 (PC))  returns 0x20000000 (0000ms, 0769ms total)
T28A4 004:328 JLINK_ClrBPEx(BPHandle = 0x0000000E)  returns 0x00 (0000ms, 0769ms total)
T28A4 004:328 JLINK_ReadReg(R0)  returns 0x00000000 (0000ms, 0769ms total)
T28A4 004:329 JLINK_WriteMem(0x20000180, 0x0400 Bytes, ...) -- Data:  00 EE 10 4A B8 EE 40 0A 5F ED 16 0A 80 EE 20 1A ... -- CPU_WriteMem(1024 bytes @ 0x20000180)  returns 0x400 (0008ms, 0777ms total)
T28A4 004:337 JLINK_WriteReg(R0, 0x08021400)  returns 0x00 (0000ms, 0777ms total)
T28A4 004:337 JLINK_WriteReg(R1, 0x00000400)  returns 0x00 (0000ms, 0777ms total)
T28A4 004:337 JLINK_WriteReg(R2, 0x20000180)  returns 0x00 (0000ms, 0777ms total)
T28A4 004:337 JLINK_WriteReg(R3, 0x00000000)  returns 0x00 (0000ms, 0777ms total)
T28A4 004:337 JLINK_WriteReg(R4, 0x00000000)  returns 0x00 (0000ms, 0777ms total)
T28A4 004:337 JLINK_WriteReg(R5, 0x00000000)  returns 0x00 (0000ms, 0777ms total)
T28A4 004:337 JLINK_WriteReg(R6, 0x00000000)  returns 0x00 (0000ms, 0777ms total)
T28A4 004:337 JLINK_WriteReg(R7, 0x00000000)  returns 0x00 (0000ms, 0777ms total)
T28A4 004:337 JLINK_WriteReg(R8, 0x00000000)  returns 0x00 (0000ms, 0777ms total)
T28A4 004:337 JLINK_WriteReg(R9, 0x2000017C)  returns 0x00 (0000ms, 0777ms total)
T28A4 004:337 JLINK_WriteReg(R10, 0x00000000)  returns 0x00 (0000ms, 0777ms total)
T28A4 004:337 JLINK_WriteReg(R11, 0x00000000)  returns 0x00 (0000ms, 0777ms total)
T28A4 004:337 JLINK_WriteReg(R12, 0x00000000)  returns 0x00 (0000ms, 0777ms total)
T28A4 004:337 JLINK_WriteReg(R13 (SP), 0x20001000)  returns 0x00 (0000ms, 0777ms total)
T28A4 004:337 JLINK_WriteReg(R14, 0x20000001)  returns 0x00 (0000ms, 0777ms total)
T28A4 004:337 JLINK_WriteReg(R15 (PC), 0x20000108)  returns 0x00 (0000ms, 0777ms total)
T28A4 004:337 JLINK_WriteReg(XPSR, 0x01000000)  returns 0x00 (0000ms, 0777ms total)
T28A4 004:337 JLINK_WriteReg(MSP, 0x20001000)  returns 0x00 (0000ms, 0777ms total)
T28A4 004:337 JLINK_WriteReg(PSP, 0x20001000)  returns 0x00 (0000ms, 0777ms total)
T28A4 004:337 JLINK_WriteReg(CFBP, 0x00000000)  returns 0x00 (0000ms, 0777ms total)
T28A4 004:337 JLINK_SetBPEx(Addr = 0x20000000, Type = 0xFFFFFFF2)  returns 0x0000000F (0000ms, 0777ms total)
T28A4 004:337 JLINK_Go() (0002ms, 0779ms total)
T28A4 004:339 JLINK_IsHalted()  returns FALSE (0001ms, 0780ms total)
T28A4 004:450 JLINK_IsHalted() -- CPU_ReadMem(2 bytes @ 0x20000000)  returns TRUE (0004ms, 0783ms total)
T28A4 004:454 JLINK_ReadReg(R15 (PC))  returns 0x20000000 (0000ms, 0779ms total)
T28A4 004:454 JLINK_ClrBPEx(BPHandle = 0x0000000F)  returns 0x00 (0000ms, 0779ms total)
T28A4 004:454 JLINK_ReadReg(R0)  returns 0x00000000 (0000ms, 0779ms total)
T28A4 004:454 JLINK_WriteMem(0x20000180, 0x0400 Bytes, ...) -- Data:  01 7F 4F F4 3B 70 0B F0 DE FC 0A 20 FE F7 0E FF ... -- CPU_WriteMem(1024 bytes @ 0x20000180)  returns 0x400 (0007ms, 0786ms total)
T28A4 004:461 JLINK_WriteReg(R0, 0x08021800)  returns 0x00 (0000ms, 0786ms total)
T28A4 004:461 JLINK_WriteReg(R1, 0x00000400)  returns 0x00 (0000ms, 0786ms total)
T28A4 004:461 JLINK_WriteReg(R2, 0x20000180)  returns 0x00 (0000ms, 0786ms total)
T28A4 004:461 JLINK_WriteReg(R3, 0x00000000)  returns 0x00 (0000ms, 0786ms total)
T28A4 004:461 JLINK_WriteReg(R4, 0x00000000)  returns 0x00 (0000ms, 0786ms total)
T28A4 004:461 JLINK_WriteReg(R5, 0x00000000)  returns 0x00 (0000ms, 0786ms total)
T28A4 004:461 JLINK_WriteReg(R6, 0x00000000)  returns 0x00 (0000ms, 0786ms total)
T28A4 004:461 JLINK_WriteReg(R7, 0x00000000)  returns 0x00 (0000ms, 0786ms total)
T28A4 004:461 JLINK_WriteReg(R8, 0x00000000)  returns 0x00 (0000ms, 0786ms total)
T28A4 004:461 JLINK_WriteReg(R9, 0x2000017C)  returns 0x00 (0000ms, 0786ms total)
T28A4 004:461 JLINK_WriteReg(R10, 0x00000000)  returns 0x00 (0000ms, 0786ms total)
T28A4 004:461 JLINK_WriteReg(R11, 0x00000000)  returns 0x00 (0000ms, 0786ms total)
T28A4 004:461 JLINK_WriteReg(R12, 0x00000000)  returns 0x00 (0000ms, 0786ms total)
T28A4 004:461 JLINK_WriteReg(R13 (SP), 0x20001000)  returns 0x00 (0000ms, 0786ms total)
T28A4 004:461 JLINK_WriteReg(R14, 0x20000001)  returns 0x00 (0000ms, 0786ms total)
T28A4 004:461 JLINK_WriteReg(R15 (PC), 0x20000108)  returns 0x00 (0000ms, 0786ms total)
T28A4 004:461 JLINK_WriteReg(XPSR, 0x01000000)  returns 0x00 (0000ms, 0786ms total)
T28A4 004:461 JLINK_WriteReg(MSP, 0x20001000)  returns 0x00 (0000ms, 0786ms total)
T28A4 004:461 JLINK_WriteReg(PSP, 0x20001000)  returns 0x00 (0000ms, 0786ms total)
T28A4 004:461 JLINK_WriteReg(CFBP, 0x00000000)  returns 0x00 (0000ms, 0786ms total)
T28A4 004:461 JLINK_SetBPEx(Addr = 0x20000000, Type = 0xFFFFFFF2)  returns 0x00000010 (0000ms, 0786ms total)
T28A4 004:461 JLINK_Go() (0002ms, 0788ms total)
T28A4 004:463 JLINK_IsHalted()  returns FALSE (0001ms, 0789ms total)
T28A4 004:578 JLINK_IsHalted() -- CPU_ReadMem(2 bytes @ 0x20000000)  returns TRUE (0003ms, 0791ms total)
T28A4 004:581 JLINK_ReadReg(R15 (PC))  returns 0x20000000 (0000ms, 0788ms total)
T28A4 004:581 JLINK_ClrBPEx(BPHandle = 0x00000010)  returns 0x00 (0000ms, 0788ms total)
T28A4 004:581 JLINK_ReadReg(R0)  returns 0x00000000 (0000ms, 0788ms total)
T28A4 004:582 JLINK_WriteMem(0x20000180, 0x0400 Bytes, ...) -- Data:  0C F0 00 FB F1 A1 41 F2 70 00 0C F0 92 FA 20 46 ... -- CPU_WriteMem(1024 bytes @ 0x20000180)  returns 0x400 (0007ms, 0795ms total)
T28A4 004:589 JLINK_WriteReg(R0, 0x08021C00)  returns 0x00 (0000ms, 0795ms total)
T28A4 004:589 JLINK_WriteReg(R1, 0x00000400)  returns 0x00 (0000ms, 0795ms total)
T28A4 004:589 JLINK_WriteReg(R2, 0x20000180)  returns 0x00 (0000ms, 0795ms total)
T28A4 004:589 JLINK_WriteReg(R3, 0x00000000)  returns 0x00 (0000ms, 0795ms total)
T28A4 004:589 JLINK_WriteReg(R4, 0x00000000)  returns 0x00 (0000ms, 0795ms total)
T28A4 004:589 JLINK_WriteReg(R5, 0x00000000)  returns 0x00 (0000ms, 0795ms total)
T28A4 004:589 JLINK_WriteReg(R6, 0x00000000)  returns 0x00 (0000ms, 0795ms total)
T28A4 004:589 JLINK_WriteReg(R7, 0x00000000)  returns 0x00 (0000ms, 0795ms total)
T28A4 004:589 JLINK_WriteReg(R8, 0x00000000)  returns 0x00 (0000ms, 0795ms total)
T28A4 004:589 JLINK_WriteReg(R9, 0x2000017C)  returns 0x00 (0000ms, 0795ms total)
T28A4 004:589 JLINK_WriteReg(R10, 0x00000000)  returns 0x00 (0000ms, 0795ms total)
T28A4 004:589 JLINK_WriteReg(R11, 0x00000000)  returns 0x00 (0000ms, 0795ms total)
T28A4 004:589 JLINK_WriteReg(R12, 0x00000000)  returns 0x00 (0000ms, 0795ms total)
T28A4 004:589 JLINK_WriteReg(R13 (SP), 0x20001000)  returns 0x00 (0000ms, 0795ms total)
T28A4 004:589 JLINK_WriteReg(R14, 0x20000001)  returns 0x00 (0000ms, 0795ms total)
